!Agilent Technologies,N5230C,MY49001079,A.09.31.02
!Agilent N5230C: A.09.31.02
!Date: Monday, April 10, 2023 13:37:36
!Correction: S11(Full 2 Port(1,3)) 
!S31(Full 2 Port(1,3)) 
!S13(Full 2 Port(1,3)) 
!S33(Full 2 Port(1,3)) 
!S2P File: Measurements: S11, S31, S13, S33:
# Hz S  RI   R 50
50000000 -0.50841397 0.71267778 -0.00060385047 9.438581e-005 -0.00056919915 -0.00077141944 -0.55901295 0.75747186
51187500 -0.36857057 0.79241425 -0.0003537008 -3.4224802e-005 0.00051017333 0.00054618239 -0.40785879 0.8295722
52375000 -0.23707484 0.84757745 -0.00010600067 0.00014004776 -0.00050016574 0.00048819566 -0.24835287 0.90245432
53562500 -0.080839127 0.87729263 0.00032187277 -0.00014419456 -0.0006916172 0.00064435304 -0.12596624 0.94244617
54750000 0.054921724 0.89611256 0.000290811 0.000529868 -0.00021942338 0.00072237063 0.039764371 0.92118543
55937500 0.2009992 0.88823503 0.00068661926 0.00042453327 0.00010951306 -0.00056303007 0.19594026 0.92854601
57125000 0.33110806 0.84329516 -6.6993758e-005 0.0014386035 -0.0005350518 0.00012067793 0.31309876 0.88831764
58312500 0.45380628 0.79800719 0.0008491457 0.0012016984 0.00022209012 0.00041999546 0.43388283 0.80666101
59500000 0.56422633 0.73127514 0.00063928141 0.00038403698 -6.8846712e-005 -0.00026105184 0.57060969 0.7548967
60687500 0.6541608 0.65859002 1.9497478e-005 0.00051363581 -5.761996e-005 -0.00097788987 0.6469571 0.66550028
61875000 0.73373795 0.5658806 0.00095251913 -4.8171958e-005 0.00061242533 -6.1705682e-006 0.72817302 0.56123972
63062500 0.81543219 0.46055874 0.00051140483 0.0002478945 0.00059990102 -0.0003786287 0.80858749 0.48696601
64250000 0.86316639 0.35249272 0.00054829573 -0.0013461518 -0.00083432026 -0.0002925033 0.8452304 0.37195885
65437500 0.89649713 0.24423404 -0.00030451833 -0.00068412052 0.00043055273 2.5247447e-005 0.87429082 0.25877005
66625000 0.92682147 0.13553225 -0.0012891939 -0.00099644274 -0.00015896674 -0.00079242326 0.91126519 0.16293804
67812500 0.93106759 0.021053592 -0.00060391327 -0.00047441333 -0.0010146782 -0.00077291788 0.91040856 0.056086522
69000000 0.91671968 -0.091597714 -0.0016602081 -0.0004210287 -0.0019472811 -0.00013405757 0.91331679 -0.05018951
70187500 0.88046575 -0.18949443 -0.0021883554 0.0011872079 -0.0017660037 0.00096837879 0.90652061 -0.14856066
71375000 0.83155781 -0.28428456 -0.0020021326 0.0023207075 -0.0031317475 0.0014418669 0.86614531 -0.2358253
72562500 0.76457369 -0.34890276 -0.0005514861 0.0037125202 -0.0013565703 0.0038338834 0.84564632 -0.33658415
73750000 0.72080219 -0.38998684 0.0017487819 0.0034710832 0.001742306 0.0047079949 0.79462451 -0.43220541
74937500 0.71597767 -0.45173493 0.0023884084 0.001716684 0.002143696 0.0019537662 0.73744261 -0.51077461
76125000 0.68632299 -0.54412866 0.0011299747 0.0016297796 0.0015603004 -0.00021914624 0.66717124 -0.58159256
77312500 0.61403006 -0.64059979 0.00064804702 0.0013721272 0.00019232134 0.00055993232 0.57637638 -0.6565308
78500000 0.51184446 -0.72488189 -0.00055098603 0.0021082922 -0.0010663171 0.002864178 0.49669114 -0.71513826
79687500 0.3914372 -0.77743977 0.00083270954 0.0036520495 0.0020956115 0.0043440294 0.38560677 -0.74835849
80875000 0.2540794 -0.81000489 0.0049035307 0.0039040416 0.0042089946 0.004741915 0.26620772 -0.79194039
82062500 0.10818216 -0.80223751 0.0089962026 0.0030990359 0.0095146177 0.0038696579 0.16869779 -0.79901111
83250000 -0.0068831709 -0.73615646 0.01365295 -0.0010563992 0.014815677 -0.0004031547 0.029465977 -0.78452665
84437500 -0.085502081 -0.71459585 0.015198992 -0.0087503446 0.014858633 -0.0089612864 -0.097287007 -0.76385558
85625000 -0.20186219 -0.6681056 0.013352354 -0.018206906 0.01220174 -0.018018505 -0.21657853 -0.71305972
86812500 -0.32334146 -0.57864755 0.0060970066 -0.029022144 0.0052338992 -0.028312784 -0.33429399 -0.60192019
88000000 -0.40454689 -0.4451606 -0.011657898 -0.035845149 -0.012304593 -0.03679008 -0.42772684 -0.50061941
89187500 -0.44590905 -0.29928866 -0.034385387 -0.031653862 -0.034534767 -0.031798348 -0.47922373 -0.3562099
90375000 -0.44106057 -0.15477055 -0.054422896 -0.011306117 -0.055370331 -0.011029446 -0.50315738 -0.20199294
91562500 -0.40457374 -0.019870244 -0.063264735 0.021731924 -0.061240841 0.023007218 -0.47860074 -0.057932381
92750000 -0.32187372 0.088079266 -0.04688203 0.058926299 -0.046059072 0.058393497 -0.40986806 0.076206505
93937500 -0.2237778 0.1661953 -0.0099573219 0.082547851 -0.010613482 0.08226306 -0.31428936 0.17445856
95125000 -0.11343851 0.20287575 0.036426097 0.082251169 0.036794998 0.082645126 -0.19689196 0.23480511
96312500 -0.018215137 0.20638859 0.077045776 0.056129463 0.078682132 0.056412164 -0.080336764 0.26225504
97500000 0.062173739 0.19399014 0.098457843 0.010003052 0.097335488 0.010092952 0.018975068 0.25476512
98687500 0.13001406 0.16908376 0.089216091 -0.038248133 0.089908592 -0.036881767 0.10762328 0.221515
99875000 0.18676823 0.12223697 0.064711973 -0.071951479 0.065357141 -0.070568748 0.1717006 0.17889823
101062500 0.21047914 0.069674276 0.03026033 -0.095776692 0.030195523 -0.096314669 0.2266088 0.12156671
102250000 0.21882218 0.029036243 -0.014040061 -0.10560798 -0.012947966 -0.10306019 0.2410365 0.055385247
103437500 0.21257322 0.0015682814 -0.061658073 -0.091839932 -0.062651746 -0.092498988 0.24268067 0.0016247537
104625000 0.21354398 -0.022714885 -0.10024437 -0.057399828 -0.099181905 -0.058579665 0.2241632 -0.032829814
105812500 0.21280771 -0.035111904 -0.11739898 -0.008197045 -0.1159307 -0.0065816469 0.21037047 -0.051365923
107000000 0.20778209 -0.044704195 -0.11234166 0.046222985 -0.11161975 0.046736348 0.19936979 -0.05978848
108187500 0.21166444 -0.050843146 -0.079426073 0.091773212 -0.079872593 0.09107472 0.1978054 -0.066965073
109375000 0.22834882 -0.044157024 -0.032116599 0.11754034 -0.031109788 0.1167 0.19588722 -0.075371675
110562500 0.27167493 -0.061675377 0.017867504 0.11911688 0.019457377 0.11975271 0.2013046 -0.086701103
111750000 0.28198656 -0.11131418 0.066775776 0.10182709 0.064549752 0.1011176 0.19794902 -0.096273236
112937500 0.27080485 -0.14155053 0.10401732 0.06598708 0.10589548 0.066180766 0.19888949 -0.11153834
114125000 0.26728049 -0.17266278 0.12439099 0.015233286 0.12373343 0.014819215 0.19795251 -0.12134323
115312500 0.24539062 -0.19670747 0.1206921 -0.038884964 0.11938157 -0.038764525 0.1948152 -0.13201739
116500000 0.22017284 -0.22351162 0.094135515 -0.087500408 0.094926447 -0.087520488 0.19527701 -0.15158069
117687500 0.19918312 -0.23662098 0.051699322 -0.11955556 0.051538873 -0.11984009 0.18709046 -0.16432036
118875000 0.17080858 -0.24814959 -0.006197209 -0.13278389 -0.006912875 -0.13378181 0.18381405 -0.18258345
120062500 0.1401981 -0.25912383 -0.065272026 -0.11802424 -0.065236792 -0.11737528 0.16647598 -0.201028
121250000 0.10642277 -0.25353923 -0.10838335 -0.079162113 -0.10701662 -0.079892077 0.14566495 -0.21859585
122437500 0.078176618 -0.23766872 -0.13001439 -0.024514241 -0.13194403 -0.025415231 0.11721734 -0.22701205
123625000 0.056269199 -0.21579243 -0.12913132 0.033550058 -0.1293783 0.03357853 0.08603929 -0.22166249
124812500 0.045953337 -0.18610233 -0.10307696 0.085841656 -0.10140501 0.085822493 0.060485326 -0.20140991
126000000 0.035675228 -0.16138476 -0.056427822 0.11676098 -0.057672545 0.11645294 0.045477238 -0.17775464
127187500 0.032889687 -0.12437571 -0.0053437878 0.1298025 -0.0053203981 0.12997277 0.038197882 -0.14878729
128375000 0.057908397 -0.082432278 0.050916087 0.12404397 0.050380636 0.12320223 0.041589029 -0.11860105
129562500 0.090688109 -0.0563972 0.098625168 0.088933513 0.098340958 0.088346504 0.052974727 -0.090948559
130750000 0.13257296 -0.057465222 0.12762633 0.038476892 0.12598987 0.03697744 0.075624876 -0.07408376
131937500 0.16250542 -0.06729687 0.12788393 -0.020194663 0.12924725 -0.020434896 0.10329237 -0.067173988
133125000 0.19070247 -0.085611597 0.10714868 -0.071624696 0.10699926 -0.070184968 0.12376074 -0.066165589
134312500 0.21172756 -0.10966522 0.065157257 -0.1049773 0.065809086 -0.10597824 0.14913003 -0.076600932
135500000 0.22950694 -0.14458452 0.016539378 -0.1202305 0.015685789 -0.12124929 0.16682677 -0.090045892
136687500 0.22992459 -0.17846349 -0.03237085 -0.11349033 -0.034347255 -0.11431029 0.18155169 -0.10897852
137875000 0.2176564 -0.20893711 -0.073569119 -0.089052431 -0.073964782 -0.090208426 0.19191796 -0.13695574
139062500 0.20276701 -0.22809564 -0.10187345 -0.050976962 -0.101004 -0.051650222 0.19101672 -0.15779531
140250000 0.17869961 -0.2411432 -0.11101317 -0.0065472308 -0.11124583 -0.0075036609 0.18491668 -0.17615029
141437500 0.1563728 -0.23785779 -0.10354619 0.038643517 -0.10381253 0.037401069 0.17936315 -0.19523692
142625000 0.13812904 -0.23157023 -0.076826364 0.077161968 -0.0776264 0.077467516 0.1730025 -0.20615843
143812500 0.13030811 -0.21541183 -0.037283972 0.099410921 -0.038304821 0.098774828 0.16132717 -0.21879484
145000000 0.13634919 -0.20362729 0.0073847692 0.10372853 0.0067061139 0.10438393 0.15369891 -0.21952081
146187500 0.15374231 -0.19975062 0.047238562 0.086783856 0.048044302 0.086251557 0.14698751 -0.21118142
147375000 0.1729801 -0.20220661 0.075774133 0.054376476 0.07612516 0.055370633 0.15179011 -0.20391259
148562500 0.2031005 -0.20203187 0.084657803 0.014453527 0.084391087 0.015037828 0.17239818 -0.20014274
149750000 0.24367596 -0.22438978 0.071018919 -0.021725798 0.072289601 -0.022231273 0.20479687 -0.19977492
150937500 0.29098514 -0.28316289 0.042937327 -0.041572712 0.043185521 -0.041140001 0.25005755 -0.22814354
152125000 0.31183895 -0.39019349 0.017167831 -0.036307625 0.017578581 -0.037338678 0.2935726 -0.30007145
153312500 0.24577655 -0.52319556 0.010323375 -0.022144364 0.0088366335 -0.02219433 0.29638156 -0.40965334
154500000 0.088568732 -0.59832829 0.014788188 -0.01357405 0.013378815 -0.013710755 0.21189049 -0.53059876
155687500 -0.069581717 -0.54885674 0.031454749 -0.015280043 0.032671351 -0.015598246 0.064688288 -0.58563977
156875000 -0.15319657 -0.43157914 0.041465484 -0.048023257 0.04107007 -0.047086939 -0.077676192 -0.53088051
158062500 -0.15282135 -0.32756639 0.014451566 -0.083805867 0.014555162 -0.085290149 -0.1530295 -0.4363977
159250000 -0.11179905 -0.27084702 -0.033872481 -0.093038574 -0.034077134 -0.092590101 -0.15403756 -0.34813485
160437500 -0.075462379 -0.25489086 -0.076836228 -0.068172395 -0.077616148 -0.068516411 -0.13788563 -0.28554246
161625000 -0.051433321 -0.25185239 -0.10185447 -0.027709004 -0.10228509 -0.028557085 -0.10813849 -0.26599127
162812500 -0.037213504 -0.26289734 -0.10781825 0.017481722 -0.10633017 0.018084854 -0.090056382 -0.25417957
164000000 -0.039021499 -0.26557651 -0.089209974 0.056645695 -0.08888156 0.058886949 -0.078995325 -0.25252438
165187500 -0.038116671 -0.27251256 -0.059834346 0.08735805 -0.058774319 0.087947704 -0.07343407 -0.25586855
166375000 -0.046716277 -0.2796607 -0.02263671 0.10136996 -0.021426316 0.099807411 -0.072178259 -0.25735208
167562500 -0.056403231 -0.28153202 0.01549356 0.097955398 0.015730483 0.1002744 -0.075431697 -0.26751396
168750000 -0.070675582 -0.28569484 0.046062008 0.086864598 0.04775954 0.085880809 -0.08384762 -0.27443537
169937500 -0.084327929 -0.29092509 0.07263688 0.066210866 0.071427777 0.065362893 -0.094037414 -0.27649388
171125000 -0.097734042 -0.28595614 0.090773195 0.039002482 0.090714164 0.038001671 -0.10995293 -0.28091651
172312500 -0.11039323 -0.28247774 0.099398807 0.0066796257 0.098722145 0.0044204309 -0.12872677 -0.27527928
173500000 -0.12906465 -0.27438712 0.096379071 -0.028103154 0.09575782 -0.029812265 -0.14309542 -0.26702192
174687500 -0.14922798 -0.25915772 0.081171364 -0.059792481 0.079319477 -0.059980839 -0.16221246 -0.25817084
175875000 -0.16154774 -0.24288777 0.055468522 -0.083794609 0.056140758 -0.082754739 -0.17819451 -0.24630773
177062500 -0.17589207 -0.22478376 0.025624745 -0.099642262 0.024996338 -0.098366201 -0.19574896 -0.22969328
178250000 -0.18369994 -0.20604791 -0.0079028104 -0.10209316 -0.0075651533 -0.10333314 -0.20992823 -0.2042127
179437500 -0.192669 -0.17689678 -0.042110626 -0.093117595 -0.041692264 -0.094534606 -0.22099924 -0.17201217
180625000 -0.19452859 -0.1572545 -0.070805974 -0.075988621 -0.070374779 -0.07381729 -0.22140825 -0.13832635
181812500 -0.18464826 -0.13727804 -0.091668963 -0.048175208 -0.09181314 -0.049662851 -0.21397214 -0.10557013
183000000 -0.17896143 -0.11164325 -0.10318101 -0.014641438 -0.10389418 -0.016732438 -0.19578172 -0.079562902
184187500 -0.16405231 -0.094217837 -0.10334002 0.020384656 -0.10234976 0.019327732 -0.1762746 -0.060287446
185375000 -0.14949195 -0.07928437 -0.09069296 0.052204177 -0.09174709 0.055819038 -0.1584771 -0.046695221
186562500 -0.13139966 -0.067829214 -0.068962835 0.079621986 -0.067803748 0.079758748 -0.1316216 -0.038801882
187750000 -0.11519077 -0.063208088 -0.039431199 0.098923527 -0.041301653 0.097224914 -0.10617105 -0.040182181
188937500 -0.10053732 -0.060809582 -0.0056904345 0.1059319 -0.0056515392 0.10730254 -0.085580915 -0.044739172
190125000 -0.085210554 -0.064479686 0.028779801 0.10191035 0.027280033 0.10081416 -0.064151481 -0.054566279
191312500 -0.071119003 -0.071086168 0.060561161 0.084707193 0.06202741 0.085160308 -0.050788313 -0.067821689
192500000 -0.060350865 -0.085695811 0.084622711 0.061471902 0.08493486 0.059910513 -0.040696792 -0.090445392
193687500 -0.057514504 -0.093891241 0.09754362 0.029057318 0.098766916 0.029949728 -0.034587998 -0.10860942
194875000 -0.056254018 -0.10202602 0.0993938 -0.0041781166 0.099226765 -0.0038295302 -0.03772353 -0.13169916
196062500 -0.056957848 -0.11078866 0.091395862 -0.033733223 0.091775797 -0.033503573 -0.048173871 -0.1499086
197250000 -0.057276521 -0.11295944 0.075193845 -0.059423562 0.072818182 -0.059517168 -0.06306345 -0.16682301
198437500 -0.062165312 -0.114608 0.051894486 -0.076045811 0.052045323 -0.074750625 -0.081349924 -0.16822836
199625000 -0.0614332 -0.11831557 0.027688278 -0.083918691 0.028194059 -0.085185036 -0.10285106 -0.16961202
200812500 -0.069196403 -0.11791262 0.0037192747 -0.088570118 0.0030142737 -0.08795502 -0.11977841 -0.16977175
202000000 -0.077916369 -0.12233689 -0.022320755 -0.084692493 -0.022529019 -0.084954053 -0.14204499 -0.16402127
203187500 -0.094423153 -0.12410042 -0.045724068 -0.074498527 -0.046208609 -0.075451784 -0.15631498 -0.15565109
204375000 -0.098933503 -0.12215904 -0.065992408 -0.058604315 -0.066284135 -0.059433736 -0.17714667 -0.14153562
205562500 -0.11849263 -0.11526486 -0.082919277 -0.03593903 -0.080008462 -0.035252899 -0.19314581 -0.12514696
206750000 -0.12463547 -0.10505147 -0.088525705 -0.0096492395 -0.089932628 -0.010640209 -0.20709908 -0.10311286
207937500 -0.13338441 -0.093624711 -0.085596666 0.017804632 -0.084693983 0.019104987 -0.21723354 -0.072259195
209125000 -0.13816442 -0.075861342 -0.075351007 0.041569628 -0.077728309 0.043375399 -0.22360966 -0.046119086
210312500 -0.1418388 -0.056548163 -0.058459938 0.06351807 -0.058082141 0.06226445 -0.21732074 -0.013475198
211500000 -0.14332975 -0.035059545 -0.03728126 0.075244233 -0.035882127 0.073841698 -0.21175796 0.015170092
212687500 -0.14217447 -0.005925246 -0.01263949 0.082623102 -0.01232025 0.08295133 -0.2007757 0.04300873
213875000 -0.1293755 0.019427944 0.014694972 0.082087614 0.014150233 0.081357002 -0.18164924 0.069913477
215062500 -0.1085439 0.047145575 0.037045259 0.074369699 0.036834806 0.073702022 -0.16161524 0.09404882
216250000 -0.084670857 0.06709329 0.056836475 0.057586469 0.056687705 0.056869745 -0.13036445 0.1137627
217437500 -0.051763698 0.090126947 0.069275804 0.035291728 0.069988757 0.035711274 -0.093844928 0.13094868
218625000 -0.0078188777 0.10312205 0.078916706 0.0096949255 0.076690078 0.009148757 -0.052826867 0.139093
219812500 0.046638928 0.10142627 0.071207203 -0.018115558 0.069866687 -0.017951265 -0.0069104275 0.13957077
221000000 0.11141345 0.084174328 0.055142533 -0.0410285 0.056287672 -0.038995378 0.043734517 0.12838054
222187500 0.17968951 0.037269801 0.031806245 -0.052732922 0.031167049 -0.052181739 0.094238579 0.10413159
223375000 0.232712 -0.048402838 0.0062459446 -0.050053217 0.0046460661 -0.048953786 0.1420543 0.067983434
224562500 0.24266681 -0.18532605 -0.009558931 -0.031559341 -0.0088769188 -0.031207707 0.19521727 0.00024018063
225750000 0.14479706 -0.31992778 -0.0040386287 -0.01576419 -0.0044317669 -0.015370097 0.21630737 -0.090538368
226937500 -0.01879264 -0.3335768 0.0013273469 -0.014293178 0.0018965499 -0.011708817 0.18341473 -0.22122979
228125000 -0.12427055 -0.26081416 0.0079612788 -0.013076635 0.0057423487 -0.011543773 0.051904753 -0.30448148
229312500 -0.15626678 -0.16891712 0.019492485 -0.022218056 0.018640183 -0.020616554 -0.088880926 -0.27823967
230500000 -0.14581187 -0.10295016 0.016334096 -0.041212257 0.014879165 -0.042911991 -0.15737818 -0.18915726
231687500 -0.11452233 -0.070539922 -0.003998071 -0.054011676 -0.0039592488 -0.055186134 -0.16357574 -0.10749218
232875000 -0.087683305 -0.044641498 -0.026636787 -0.053913426 -0.027236501 -0.053549591 -0.14553753 -0.06230722
234062500 -0.062806658 -0.043120828 -0.047113843 -0.044301718 -0.048764221 -0.044916198 -0.12086891 -0.032804757
235250000 -0.044126984 -0.047408216 -0.062067039 -0.027357467 -0.061676458 -0.026598006 -0.096416801 -0.020502655
236437500 -0.027422568 -0.054922663 -0.06708359 -0.005350248 -0.06811662 -0.0062055951 -0.07438533 -0.015444126
237625000 -0.017607149 -0.062437706 -0.068802245 0.015539514 -0.066813603 0.015059603 -0.058610413 -0.017896203
238812500 -0.010479204 -0.074007437 -0.060795974 0.035262179 -0.062290564 0.037522789 -0.043395612 -0.026732186
240000000 -0.011324531 -0.084313378 -0.04751686 0.052174829 -0.048744779 0.05242509 -0.037595563 -0.030295528
241187500 -0.014327133 -0.093825154 -0.03179184 0.064729519 -0.030634467 0.062930949 -0.029762523 -0.042729888
242375000 -0.017610621 -0.096887074 -0.011441251 0.070203438 -0.011704182 0.068832166 -0.026301917 -0.050657649
243562500 -0.024454281 -0.10617807 0.0087576192 0.070956849 0.0072571086 0.071651325 -0.026910201 -0.058742218
244750000 -0.033328883 -0.11496378 0.028312651 0.065092869 0.027882699 0.06553746 -0.029459361 -0.069701985
245937500 -0.045329716 -0.11939606 0.045125533 0.054944992 0.045996483 0.055972807 -0.034967043 -0.074647859
247125000 -0.053598832 -0.12798788 0.059080496 0.039412972 0.058310494 0.039761879 -0.042320497 -0.082016297
248312500 -0.063041575 -0.12449913 0.06429223 0.023528777 0.065522946 0.022760309 -0.050741658 -0.084642701
249500000 -0.074389733 -0.12472393 0.070475459 0.0053903791 0.070711821 0.0036609774 -0.06045394 -0.085738383
250687500 -0.085631542 -0.12201439 0.068674669 -0.01381958 0.070225343 -0.015469352 -0.070072368 -0.08659324
251875000 -0.098163977 -0.1109933 0.061359882 -0.032982185 0.061989836 -0.033520836 -0.083577186 -0.078041025
253062500 -0.1067012 -0.098321304 0.053100806 -0.047954973 0.051547237 -0.049431983 -0.093010381 -0.074714959
254250000 -0.1141979 -0.089800239 0.036451772 -0.06039758 0.037620872 -0.059829444 -0.10027412 -0.067005083
255437500 -0.12307472 -0.072320081 0.020192059 -0.069299661 0.019817073 -0.069496647 -0.10922413 -0.055406418
256625000 -0.12707928 -0.063561656 0.0014094056 -0.071280614 0.0003829193 -0.06936802 -0.11821109 -0.042917542
257812500 -0.12897432 -0.045022514 -0.018350504 -0.068404026 -0.017140117 -0.067627572 -0.12238395 -0.030382497
259000000 -0.12750386 -0.030963954 -0.035656277 -0.060723167 -0.036273312 -0.061400469 -0.12571304 -0.013023688
260187500 -0.12603922 -0.016546508 -0.05086574 -0.050582591 -0.050020844 -0.048151638 -0.12652513 0.0059677032
261375000 -0.11896247 -0.002989935 -0.061415486 -0.034115613 -0.061045509 -0.033675537 -0.12478158 0.020993739
262562500 -0.10907769 0.011285494 -0.067553177 -0.016412377 -0.067989804 -0.016621586 -0.11821545 0.038037851
263750000 -0.097368367 0.023095988 -0.069977418 0.00089529692 -0.070249006 0.0024214284 -0.10670519 0.052069068
